Circuit: * C:\Users\Wen\Desktop\SJSU\TA_EE122lab\lab2\Non-inverting amplifier.asc

Direct Newton iteration for .op point succeeded.
Semiconductor Device Operating Points:
                        --- Diodes ---
Name:    d:u1:4      d:u1:1
Model:    u1:di       u1:x
Id:     -2.68e-15   -3.71e-15
Vd:     -2.68e-06   -3.70e-03
Req:     1.00e-09    1.00e-12
CAP:     0.00e+00    0.00e+00

                        --- VDMOSFET Transistors ---
Name:        m:u1:2      m:u1:1
Model:        u1:p        u1:n
Id:         -2.19e-03    2.31e-03
Vgs:         3.70e-03    3.70e-03
Vds:        -1.70e+01    1.30e+01
Vth:         3.00e-01   -3.00e-01
Gm:          1.48e-02    1.52e-02
Gds:         0.00e+00    0.00e+00
Cgs:         0.00e+00    0.00e+00
Cgd:         0.00e+00    0.00e+00
Cbody:       0.00e+00    0.00e+00



Date: Wed Jan 27 00:56:32 2021
Total elapsed time: 0.069 seconds.

tnom = 27
temp = 27
method = trap
totiter = 15
traniter = 0
tranpoints = 0
accept = 0
rejected = 0
matrix size = 11
fillins = 2
solver = Normal
Matrix Compiler1: 588 bytes object code size
Matrix Compiler2: 1.10 KB object code size
